i2cset -y 1 0x50 0x00  0x03
i2cset -y 1 0x50 0x00  0x04
i2cset -y 1 0x50 0x00 0x00
i2cset -y 1 0x50 0x00 0x00
i2cset -y 1 0x50 0x00 0x00
i2cset -y 1 0x50 0x00 0x00
i2cset -y 1 0x50 0x00 0x08
i2cset -y 1 0x50 0x00 0x00
i2cset -y 1 0x50 0x00 0x00
i2cset -y 1 0x50 0x00 0x00
i2cset -y 1 0x50 0x00 0x00
i2cset -y 1 0x50 0x00 0x01
i2cset -y 1 0x50 0x00 0x0D
i2cset -y 1 0x50 0x00 0x00
i2cset -y 1 0x50 0x00 0x00
i2cset -y 1 0x50 0x00 0x00
i2cset -y 1 0x50 0x00 0x00
i2cset -y 1 0x50 0x00 0x00
i2cset -y 1 0x50 0x00 0x64
i2cset -y 1 0x50 0x00 0x00
i2cset -y 1 0x50 0x00 0x43
i2cset -y 1 0x50 0x00 0x49
i2cset -y 1 0x50 0x00 0x53
i2cset -y 1 0x50 0x00 0x43
i2cset -y 1 0x50 0x00 0x4F
i2cset -y 1 0x50 0x00 0x2D
i2cset -y 1 0x50 0x00 0x53
i2cset -y 1 0x50 0x00 0x4F
i2cset -y 1 0x50 0x00 0x20
i2cset -y 1 0x50 0x00 0x20
i2cset -y 1 0x50 0x00 0x20
i2cset -y 1 0x50 0x00 0x20
i2cset -y 1 0x50 0x00 0x20
i2cset -y 1 0x50 0x00 0x20
i2cset -y 1 0x50 0x00 0x20
i2cset -y 1 0x50 0x00 0x20
i2cset -y 1 0x50 0x00 0x00
i2cset -y 1 0x50 0x00 0x00
i2cset -y 1 0x50 0x00 0x53
i2cset -y 1 0x50 0x00 0x4F
i2cset -y 1 0x50 0x00 0x47
i2cset -y 1 0x50 0x00 0x4C
i2cset -y 1 0x50 0x00 0x43
i2cset -y 1 0x50 0x00 0x2D
i2cset -y 1 0x50 0x00 0x54
i2cset -y 1 0x50 0x00 0x20
i2cset -y 1 0x50 0x00 0x20
i2cset -y 1 0x50 0x00 0x20
i2cset -y 1 0x50 0x00 0x20
i2cset -y 1 0x50 0x00 0x20
i2cset -y 1 0x50 0x00 0x20
i2cset -y 1 0x50 0x00 0x20
i2cset -y 1 0x50 0x00 0x20
i2cset -y 1 0x50 0x00 0x20
i2cset -y 1 0x50 0x00 0x20
i2cset -y 1 0x50 0x00 0x20
i2cset -y 1 0x50 0x00 0x34
i2cset -y 1 0x50 0x00 0x2E
i2cset -y 1 0x50 0x00 0x30
i2cset -y 1 0x50 0x00 0x20
i2cset -y 1 0x50 0x00 0x00
i2cset -y 1 0x50 0x00 0x00
i2cset -y 1 0x50 0x00 0x00
i2cset -y 1 0x50 0x00 0xCC
i2cset -y 1 0x50 0x00 0x00
i2cset -y 1 0x50 0x00 0x10
i2cset -y 1 0x50 0x00 0x00
i2cset -y 1 0x50 0x00 0x00
i2cset -y 1 0x50 0x00 0x56
i2cset -y 1 0x50 0x00 0x45
i2cset -y 1 0x50 0x00 0x31
i2cset -y 1 0x50 0x00 0x38
i2cset -y 1 0x50 0x00 0x33
i2cset -y 1 0x50 0x00 0x31
i2cset -y 1 0x50 0x00 0x31
i2cset -y 1 0x50 0x00 0x36
i2cset -y 1 0x50 0x00 0x38
i2cset -y 1 0x50 0x00 0x35
i2cset -y 1 0x50 0x00 0x38
i2cset -y 1 0x50 0x00 0x20
i2cset -y 1 0x50 0x00 0x20
i2cset -y 1 0x50 0x00 0x20
i2cset -y 1 0x50 0x00 0x20
i2cset -y 1 0x50 0x00 0x20
i2cset -y 1 0x50 0x00 0x31
i2cset -y 1 0x50 0x00 0x38
i2cset -y 1 0x50 0x00 0x30
i2cset -y 1 0x50 0x00 0x38
i2cset -y 1 0x50 0x00 0x30
i2cset -y 1 0x50 0x00 0x33
i2cset -y 1 0x50 0x00 0x20
i2cset -y 1 0x50 0x00 0x20
i2cset -y 1 0x50 0x00 0x00
i2cset -y 1 0x50 0x00 0x00
i2cset -y 1 0x50 0x00 0x00
i2cset -y 1 0x50 0x00 0x98
i2cset -y 1 0x50 0x00 0x00
i2cset -y 1 0x50 0x00 0x00
i2cset -y 1 0x50 0x00 0x08
i2cset -y 1 0x50 0x00 0x60
i2cset -y 1 0x50 0x00 0xEE
i2cset -y 1 0x50 0x00 0x00
i2cset -y 1 0x50 0x00 0xEB
i2cset -y 1 0x50 0x00 0x72
i2cset -y 1 0x50 0x00 0x1D
i2cset -y 1 0x50 0x00 0x7B
i2cset -y 1 0x50 0x00 0xD9
i2cset -y 1 0x50 0x00 0xFE
i2cset -y 1 0x50 0x00 0x58
i2cset -y 1 0x50 0x00 0x4A
i2cset -y 1 0x50 0x00 0x90
i2cset -y 1 0x50 0x00 0xF1
i2cset -y 1 0x50 0x00 0x42
i2cset -y 1 0x50 0x00 0xD8
i2cset -y 1 0x50 0x00 0x24
i2cset -y 1 0x50 0x00 0x00
i2cset -y 1 0x50 0x00 0x00
i2cset -y 1 0x50 0x00 0x00
i2cset -y 1 0x50 0x00 0x00
i2cset -y 1 0x50 0x00 0x00
i2cset -y 1 0x50 0x00 0x00
i2cset -y 1 0x50 0x00 0x00
i2cset -y 1 0x50 0x00 0x00
i2cset -y 1 0x50 0x00 0x00
i2cset -y 1 0x50 0x00 0x60
i2cset -y 1 0x50 0x00 0x29
i2cset -y 1 0x50 0x00 0x26
i2cset -y 1 0x50 0x00 0xAA
i2cset -y 1 0x50 0x00 0x43
i2cset -y 1 0x50 0x00 0x4E
i2cset -y 1 0x50 0x00 0x53
i2cset -y 1 0x50 0x00 0x38
i2cset -y 1 0x50 0x00 0x54
i2cset -y 1 0x50 0x00 0x55
i2cset -y 1 0x50 0x00 0x54
i2cset -y 1 0x50 0x00 0x41
i2cset -y 1 0x50 0x00 0x41
i2cset -y 1 0x50 0x00 0x43
i2cset -y 1 0x50 0x00 0x33
i2cset -y 1 0x50 0x00 0x30
i2cset -y 1 0x50 0x00 0x2D
i2cset -y 1 0x50 0x00 0x31
i2cset -y 1 0x50 0x00 0x34
i2cset -y 1 0x50 0x00 0x31
i2cset -y 1 0x50 0x00 0x30
i2cset -y 1 0x50 0x00 0x2D
i2cset -y 1 0x50 0x00 0x30
i2cset -y 1 0x50 0x00 0x34
i2cset -y 1 0x50 0x00 0x56
i2cset -y 1 0x50 0x00 0x30
i2cset -y 1 0x50 0x00 0x34
i2cset -y 1 0x50 0x00 0x00
i2cset -y 1 0x50 0x00 0x00
i2cset -y 1 0x50 0x00 0x00
i2cset -y 1 0x50 0x00 0x00
i2cset -y 1 0x50 0x00 0x00
i2cset -y 1 0x50 0x00 0x00
i2cset -y 1 0x50 0x00 0x00
i2cset -y 1 0x50 0x00 0x00
i2cset -y 1 0x50 0x00 0x7F
i2cset -y 1 0x50 0x00 0x00
i2cset -y 1 0x50 0x00 0x00
i2cset -y 1 0x50 0x00 0x00
i2cset -y 1 0x50 0x00 0x00
i2cset -y 1 0x50 0x00 0x00
i2cset -y 1 0x50 0x00 0x00
i2cset -y 1 0x50 0x00 0x00
i2cset -y 1 0x50 0x00 0x00
i2cset -y 1 0x50 0x00 0x00
i2cset -y 1 0x50 0x00 0x00
i2cset -y 1 0x50 0x00 0x00
i2cset -y 1 0x50 0x00 0x00
i2cset -y 1 0x50 0x00 0x00
i2cset -y 1 0x50 0x00 0x00
i2cset -y 1 0x50 0x00 0x00
i2cset -y 1 0x50 0x00 0x00
i2cset -y 1 0x50 0x00 0x00
i2cset -y 1 0x50 0x00 0x00
i2cset -y 1 0x50 0x00 0x00
i2cset -y 1 0x50 0x00 0x00
i2cset -y 1 0x50 0x00 0x00
i2cset -y 1 0x50 0x00 0x00
i2cset -y 1 0x50 0x00 0x00
i2cset -y 1 0x50 0x00 0x00
i2cset -y 1 0x50 0x00 0x00
i2cset -y 1 0x50 0x00 0x00
i2cset -y 1 0x50 0x00 0x00
i2cset -y 1 0x50 0x00 0x00
i2cset -y 1 0x50 0x00 0x00
i2cset -y 1 0x50 0x00 0x00
i2cset -y 1 0x50 0x00 0x00
i2cset -y 1 0x50 0x00 0x00
i2cset -y 1 0x50 0x00 0x47
i2cset -y 1 0x50 0x00 0x4C
i2cset -y 1 0x50 0x00 0x43
i2cset -y 1 0x50 0x00 0x2D
i2cset -y 1 0x50 0x00 0x54
i2cset -y 1 0x50 0x00 0x20
i2cset -y 1 0x50 0x00 0x20
i2cset -y 1 0x50 0x00 0x20
i2cset -y 1 0x50 0x00 0x20
i2cset -y 1 0x50 0x00 0x20
i2cset -y 1 0x50 0x00 0x20
i2cset -y 1 0x50 0x00 0x20
i2cset -y 1 0x50 0x00 0x20
i2cset -y 1 0x50 0x00 0x20
i2cset -y 1 0x50 0x00 0x20
i2cset -y 1 0x50 0x00 0x20
i2cset -y 1 0x50 0x00 0x20
i2cset -y 1 0x50 0x00 0x20
i2cset -y 1 0x50 0x00 0x20
i2cset -y 1 0x50 0x00 0x20
i2cset -y 1 0x50 0x00 0xFF
i2cset -y 1 0x50 0x00 0xFF
i2cset -y 1 0x50 0x00 0xFF
i2cset -y 1 0x50 0x00 0xFF
i2cset -y 1 0x50 0x00 0xFF
i2cset -y 1 0x50 0x00 0xFF
i2cset -y 1 0x50 0x00 0xFF
i2cset -y 1 0x50 0x00 0xFF
i2cset -y 1 0x50 0x00 0xFF
i2cset -y 1 0x50 0x00 0xFF
i2cset -y 1 0x50 0x00 0xFF
i2cset -y 1 0x50 0x00 0xFF
i2cset -y 1 0x50 0x00 0xFF
i2cset -y 1 0x50 0x00 0xFF
i2cset -y 1 0x50 0x00 0xFF
i2cset -y 1 0x50 0x00 0xFF
i2cset -y 1 0x50 0x00 0xFF
i2cset -y 1 0x50 0x00 0xFF
i2cset -y 1 0x50 0x00 0xFF
i2cset -y 1 0x50 0x00 0xFF
i2cset -y 1 0x50 0x00 0xFF
i2cset -y 1 0x50 0x00 0xFF
i2cset -y 1 0x50 0x00 0xFF
i2cset -y 1 0x50 0x00 0xFF
i2cset -y 1 0x50 0x00 0xFF
i2cset -y 1 0x50 0x00 0xFF
i2cset -y 1 0x50 0x00 0xFF
i2cset -y 1 0x50 0x00 0xFF
i2cset -y 1 0x50 0x00 0xFF
i2cset -y 1 0x50 0x00 0xFF
i2cset -y 1 0x50 0x00 0xFF
i2cset -y 1 0x50 0x00 0xFF
i2cset -y 1 0x50 0x00 0xFF
i2cset -y 1 0x50 0x00 0xFF
i2cset -y 1 0x50 0x00 0xFF
i2cset -y 1 0x50 0x00 0xFF
i2cset -y 1 0x50 0x00 0xFF
i2cset -y 1 0x50 0x00 0xFF
i2cset -y 1 0x50 0x00 0xFF
i2cset -y 1 0x50 0x00 0xFF
i2cset -y 1 0x50 0x00 0xFF
i2cset -y 1 0x50 0x00 0xFF
i2cset -y 1 0x50 0x00 0xFF
