00: 03 04 07 00 00 00 00 20 40 0c 15 01 2b 00 00 00    ???.... @???+...
10: 0f 07 00 00 41 56 41 47 4f 20 20 20 20 20 20 20    ??..AVAGO
20: 20 20 20 20 00 00 17 6a 41 46 42 52 2d 35 37 52        ..?jAFBR-57R
30: 35 41 45 5a 20 20 20 20 20 20 20 20 03 52 00 90    5AEZ        ?R.?
40: 00 1a 00 00 41 38 30 38 32 38 32 33 56 31 20 20    .?..A8082823V1
50: 20 20 20 20 30 38 30 37 31 35 20 20 68 f0 01 df        080715  h???
60: 00 00 00 00 00 00 00 00 00 00 00 00 00 00 00 00    ................
70: 00 00 00 00 00 00 00 00 00 00 00 00 00 00 00 00    ................
80: 00 00 46 7f 00 60 8f 02 3d 01 00 5f 00 9e 00 56    ..F?.`??=?._.?.V
90: cb 00 42 e5 04 ff 00 01 03 3c 01 3f 00 00 00 03    ?.B??..??<??...?
a0: 98 02 64 1b 06 3b b8 27 d0 c6 d5 68 3f 8e 43 b3    ??d??;?'???h??C?
b0: 1a 05 e0 80 bf 30 bf e0 30 c3 13 e8 3e a6 7d bd    ?????0??0???>?}?
c0: 63 01 6e 02 bf 00 00 00 00 01 00 00 00 00 00 00    c?n??....?......
d0: 00 00 00 00 00 00 00 00 00 00 00 00 00 00 00 00    ................
e0: 00 00 00 00 00 00 00 00 00 00 00 00 00 00 00 00    ................
f0: 00 00 00 00 00 00 00 00 00 00 00 00 00 00 00 00    ................
