00: 00 04 07 00 0f 00 01 20 40 0c 05 01 15 00 00 00    .??.?.? @????...
10: 1e 0f 00 00 46 49 4e 49 53 41 52 20 43 4f 52 50    ??..FINISAR CORP
20: 2e 20 20 20 00 00 90 65 46 54 52 4a 38 35 31 39    .   ..?eFTRJ8519
30: 50 31 42 4e 4c 20 20 20 41 20 20 20 03 52 00 75    P1BNL   A   ?R.u
40: 00 12 00 00 50 38 38 32 33 42 39 20 20 20 20 20    .?..P8823B9
50: 20 20 20 20 30 35 30 31 33 31 20 20 58 90 01 25        050131  X??%
60: 00 00 00 d9 6f fd fa d2 89 fd 26 ef c9 b0 3c 21    ...?o?????&???<!
70: b5 8d 0c 00 00 00 00 00 00 00 00 00 00 00 00 00    ???.............
80: 00 00 00 00 00 00 00 00 00 00 00 00 00 00 00 00    ................
90: 00 00 00 00 00 00 00 00 00 00 00 00 00 00 00 00    ................
a0: 00 00 00 00 00 00 00 00 00 00 00 00 00 00 00 00    ................
b0: 00 00 00 00 00 00 00 00 00 00 00 00 00 00 00 00    ................
c0: 00 00 00 00 00 00 00 00 00 00 00 00 00 00 00 00    ................
d0: 00 00 00 00 00 00 00 00 00 00 00 00 00 00 00 00    ................
e0: 00 00 00 00 00 00 00 00 00 00 00 00 00 00 00 00    ................
f0: 00 00 00 00 00 00 00 00 00 00 00 00 00 00 00 00    ................
